
**** 01/04/22 01:27:18 *********** Evaluation PSpice (Nov 1999) **************

 * C:\Users\Zulfiqar\Desktop\thermister.sch


 ****     CIRCUIT DESCRIPTION


******************************************************************************




* Schematics Version 9.1 - Web Update 1
* Tue Jan 04 01:27:16 2022



** Analysis setup **
.tran 0ms 6s 0 6ms
.OP 


* From [PSPICE NETLIST] section of pspiceev.ini:
.lib "nom.lib"

.INC "thermister.net"

**** INCLUDING thermister.net ****
* Schematics Netlist *



R_R8         $N_0002 $N_0001  30k  
R_R3         0 $N_0003  10k  
R_R2         $N_0003 $N_0004  260k  
R_R7         $N_0004 $N_0002  40k  
R_R6         $N_0006 $N_0005  100k  
R_R4         0 $N_0005  10k  
X_U2         $N_0002 $N_0006 12v 0 $N_0001 uA741
V_V2         12v 0 12V
V_V5         -12v 0 -12V
R_R10         12v $N_0009  2.2k  
R_R11         $N_0011 $N_0010  680  
Q_Q2         $N_0010 $N_0009 12v Q2N2907A
D_D3         $N_0011 0 D1N4002 
R_R9         $N_0001 $N_0009  10k  
R_R5         $N_0005 12v  26.35k  
V_V18         Vout 0 280mV
X_U1         Vout $N_0003 12v 0 $N_0004 uA741

**** RESUMING thermister.cir ****
.INC "thermister.als"



**** INCLUDING thermister.als ****
* Schematics Aliases *

.ALIASES
R_R8            R8(1=$N_0002 2=$N_0001 )
R_R3            R3(1=0 2=$N_0003 )
R_R2            R2(1=$N_0003 2=$N_0004 )
R_R7            R7(1=$N_0004 2=$N_0002 )
R_R6            R6(1=$N_0006 2=$N_0005 )
R_R4            R4(1=0 2=$N_0005 )
X_U2            U2(+=$N_0002 -=$N_0006 V+=12v V-=0 OUT=$N_0001 )
V_V2            V2(+=12v -=0 )
V_V5            V5(+=-12v -=0 )
R_R10           R10(1=12v 2=$N_0009 )
R_R11           R11(1=$N_0011 2=$N_0010 )
Q_Q2            Q2(c=$N_0010 b=$N_0009 e=12v )
D_D3            D3(1=$N_0011 2=0 )
R_R9            R9(1=$N_0001 2=$N_0009 )
R_R5            R5(1=$N_0005 2=12v )
V_V18           V18(+=Vout -=0 )
X_U1            U1(+=Vout -=$N_0003 V+=12v V-=0 OUT=$N_0004 )
_    _(-12v=-12v)
_    _(Vout=Vout)
_    _(12v=12v)
.ENDALIASES


**** RESUMING thermister.cir ****
.probe


.END

**** 01/04/22 01:27:18 *********** Evaluation PSpice (Nov 1999) **************

 * C:\Users\Zulfiqar\Desktop\thermister.sch


 ****     Diode MODEL PARAMETERS


******************************************************************************




               D1N4002         X_U2.dx         X_U1.dx         
          IS   14.110000E-09  800.000000E-18  800.000000E-18 
           N    1.984                                        
         ISR  100.000000E-12                                 
         IKF   94.81                                         
          BV  100.1                                          
         IBV   10                                            
          RS     .03389         1               1            
          TT    4.761000E-06                                 
         CJO   51.170000E-12                                 
          VJ     .3905                                       
           M     .2762                                       


**** 01/04/22 01:27:18 *********** Evaluation PSpice (Nov 1999) **************

 * C:\Users\Zulfiqar\Desktop\thermister.sch


 ****     BJT MODEL PARAMETERS


******************************************************************************




               Q2N2907A        X_U2.qx         X_U1.qx         
               PNP             NPN             NPN             
          IS  650.600000E-18  800.000000E-18  800.000000E-18 
          BF  231.7            93.75           93.75         
          NF    1               1               1            
         VAF  115.7                                          
         IKF    1.079                                        
         ISE   54.810000E-15                                 
          NE    1.829                                        
          BR    3.563           1               1            
          NR    1               1               1            
          RB   10                                            
          RC     .715                                        
         CJE   19.820000E-12                                 
         MJE     .3357                                       
         CJC   14.760000E-12                                 
         MJC     .5383                                       
          TF  603.700000E-12                                 
         XTF    1.7                                          
         VTF    5                                            
         ITF     .65                                         
          TR  111.300000E-09                                 
         XTB    1.5                                          
          CN    2.2             2.42            2.42         
           D     .52             .87             .87         


**** 01/04/22 01:27:18 *********** Evaluation PSpice (Nov 1999) **************

 * C:\Users\Zulfiqar\Desktop\thermister.sch


 ****     SMALL SIGNAL BIAS SOLUTION       TEMPERATURE =   27.000 DEG C


******************************************************************************



 NODE   VOLTAGE     NODE   VOLTAGE     NODE   VOLTAGE     NODE   VOLTAGE


(  12v)   12.0000  ( -12v)  -12.0000  ( Vout)     .2800  (X_U1.6)-149.3E-06     

(X_U1.7)    7.5840 (X_U1.8)    7.5840 (X_U1.9)    0.0000 (X_U2.6)   -1.5224     

(X_U2.7)   11.6160 (X_U2.8)   11.6160 (X_U2.9)    0.0000 ($N_0001)   11.6140    

($N_0002)    9.8846                   ($N_0003)     .2802                       

($N_0004)    7.5855                   ($N_0005)    3.3012                       

($N_0006)    3.3012                   ($N_0009)   11.9300                       

($N_0010) 59.91E-06                   ($N_0011) 59.90E-06                       

(X_U1.10)    -.3264                   (X_U1.11)   11.9610                       

(X_U1.12)   11.9620                   (X_U1.13)    -.3129                       

(X_U1.14)    -.3130                   (X_U1.53)   11.0000                       

(X_U1.54)    1.0000                   (X_U1.90)    -.0294                       

(X_U1.91)   40.0000                   (X_U1.92)  -40.0000                       

(X_U1.99)    6.0000                   (X_U2.10)    9.2440                       

(X_U2.11)   12.0000                   (X_U2.12)   11.9190                       

(X_U2.13)    9.2440                   (X_U2.14)    9.2723                       

(X_U2.53)   11.0000                   (X_U2.54)    1.0000                       

(X_U2.90)     .0421                   (X_U2.91)   40.0000                       

(X_U2.92)  -40.0000                   (X_U2.99)    6.0000                   




    VOLTAGE SOURCE CURRENTS
    NAME         CURRENT

    V_V2        -1.697E-03
    V_V5         0.000E+00
    V_V18       -7.726E-08
    X_U2.vb     -1.522E-05
    X_U2.vc     -1.615E-05
    X_U2.ve      1.061E-11
    X_U2.vlim    4.212E-05
    X_U2.vlp    -3.996E-11
    X_U2.vln    -4.005E-11
    X_U1.vb     -1.493E-09
    X_U1.vc      3.415E-12
    X_U1.ve      6.586E-12
    X_U1.vlim   -2.938E-05
    X_U1.vlp    -4.003E-11
    X_U1.vln    -3.997E-11

    TOTAL POWER DISSIPATION   2.04E-02  WATTS


**** 01/04/22 01:27:18 *********** Evaluation PSpice (Nov 1999) **************

 * C:\Users\Zulfiqar\Desktop\thermister.sch


 ****     OPERATING POINT INFORMATION      TEMPERATURE =   27.000 DEG C


******************************************************************************






**** VOLTAGE-CONTROLLED CURRENT SOURCES


NAME         X_U2.ga     X_U2.gcm    X_U1.ga     X_U1.gcm  
I-SOURCE     1.524E-05   1.934E-08  -3.622E-08  -3.771E-08


**** VOLTAGE-CONTROLLED VOLTAGE SOURCES


NAME         X_U2.egnd   X_U1.egnd 
V-SOURCE     6.000E+00   6.000E+00
I-SOURCE    -4.188E-05   2.890E-05


**** CURRENT-CONTROLLED CURRENT SOURCES


NAME         X_U2.fb     X_U1.fb   
I-SOURCE    -5.620E-02  -1.581E-02


**** CURRENT-CONTROLLED VOLTAGE SOURCES


NAME         X_U2.hlim   X_U1.hlim 
V-SOURCE     4.212E-02  -2.938E-02
I-SOURCE    -8.425E-14   5.877E-14


**** DIODES


NAME         D_D3        X_U2.dc     X_U2.de     X_U2.dlp    X_U2.dln  
MODEL        D1N4002     X_U2.dx     X_U2.dx     X_U2.dx     X_U2.dx   
ID           1.66E-11    1.61E-05   -1.06E-11   -4.00E-11   -4.00E-11 
VD           5.99E-05    6.14E-01   -1.06E+01   -4.00E+01   -4.00E+01 
REQ          3.61E+06    1.60E+03    1.00E+12    1.00E+12    1.00E+12 
CAP          5.25E-11    0.00E+00    0.00E+00    0.00E+00    0.00E+00 

NAME         X_U2.dp     X_U1.dc     X_U1.de     X_U1.dlp    X_U1.dln  
MODEL        X_U2.dx     X_U1.dx     X_U1.dx     X_U1.dx     X_U1.dx   
ID          -1.20E-11   -3.42E-12   -6.59E-12   -4.00E-11   -4.00E-11 
VD          -1.20E+01   -3.41E+00   -6.59E+00   -4.00E+01   -4.00E+01 
REQ          1.00E+12    1.00E+12    1.00E+12    1.00E+12    1.00E+12 
CAP          0.00E+00    0.00E+00    0.00E+00    0.00E+00    0.00E+00 

NAME         X_U1.dp   
MODEL        X_U1.dx   
ID          -1.20E-11 
VD          -1.20E+01 
REQ          1.00E+12 
CAP          0.00E+00 


**** BIPOLAR JUNCTION TRANSISTORS


NAME         Q_Q2        X_U2.q1     X_U2.q2     X_U1.q1     X_U1.q2   
MODEL        Q2N2907A    X_U2.qx     X_U2.qx     X_U1.qx     X_U1.qx   
IB           3.16E-12   -8.76E-12    1.63E-07    7.77E-08    7.73E-08 
IC          -1.66E-11    1.15E-11    1.52E-05    7.28E-06    7.24E-06 
VBE         -6.97E-02   -5.94E+00    6.12E-01    5.93E-01    5.93E-01 
VBC          1.19E+01   -8.70E+00   -2.03E+00   -1.17E+01   -1.17E+01 
VCE         -1.20E+01    2.76E+00    2.65E+00    1.23E+01    1.23E+01 
BETADC      -5.25E+00   -1.31E+00    9.38E+01    9.38E+01    9.38E+01 
GM           3.06E-13    0.00E+00    5.89E-04    2.82E-04    2.80E-04 
RPI          1.98E+11    9.38E+13    1.59E+05    3.33E+05    3.35E+05 
RX           1.00E+01    0.00E+00    0.00E+00    0.00E+00    0.00E+00 
RO           8.29E+11    1.00E+12    1.00E+12    1.00E+12    1.00E+12 
CBE          2.05E-11    0.00E+00    0.00E+00    0.00E+00    0.00E+00 
CBC          3.22E-12    0.00E+00    0.00E+00    0.00E+00    0.00E+00 
CJS          0.00E+00    0.00E+00    0.00E+00    0.00E+00    0.00E+00 
BETAAC       6.06E-02    0.00E+00    9.38E+01    9.38E+01    9.38E+01 
CBX/CBX2     0.00E+00    0.00E+00    0.00E+00    0.00E+00    0.00E+00 
FT/FT2       2.06E-03    0.00E+00    9.38E+15    4.48E+15    4.46E+15 


**** 01/04/22 01:27:18 *********** Evaluation PSpice (Nov 1999) **************

 * C:\Users\Zulfiqar\Desktop\thermister.sch


 ****     INITIAL TRANSIENT SOLUTION       TEMPERATURE =   27.000 DEG C


******************************************************************************



 NODE   VOLTAGE     NODE   VOLTAGE     NODE   VOLTAGE     NODE   VOLTAGE


(  12v)   12.0000  ( -12v)  -12.0000  ( Vout)     .2800  (X_U1.6)-149.3E-06     

(X_U1.7)    7.5840 (X_U1.8)    7.5840 (X_U1.9)    0.0000 (X_U2.6)   -1.5224     

(X_U2.7)   11.6160 (X_U2.8)   11.6160 (X_U2.9)    0.0000 ($N_0001)   11.6140    

($N_0002)    9.8846                   ($N_0003)     .2802                       

($N_0004)    7.5855                   ($N_0005)    3.3012                       

($N_0006)    3.3012                   ($N_0009)   11.9300                       

($N_0010) 59.91E-06                   ($N_0011) 59.90E-06                       

(X_U1.10)    -.3264                   (X_U1.11)   11.9610                       

(X_U1.12)   11.9620                   (X_U1.13)    -.3129                       

(X_U1.14)    -.3130                   (X_U1.53)   11.0000                       

(X_U1.54)    1.0000                   (X_U1.90)    -.0294                       

(X_U1.91)   40.0000                   (X_U1.92)  -40.0000                       

(X_U1.99)    6.0000                   (X_U2.10)    9.2440                       

(X_U2.11)   12.0000                   (X_U2.12)   11.9190                       

(X_U2.13)    9.2440                   (X_U2.14)    9.2723                       

(X_U2.53)   11.0000                   (X_U2.54)    1.0000                       

(X_U2.90)     .0421                   (X_U2.91)   40.0000                       

(X_U2.92)  -40.0000                   (X_U2.99)    6.0000                   




    VOLTAGE SOURCE CURRENTS
    NAME         CURRENT

    V_V2        -1.697E-03
    V_V5         0.000E+00
    V_V18       -7.726E-08
    X_U2.vb     -1.522E-05
    X_U2.vc     -1.615E-05
    X_U2.ve      1.061E-11
    X_U2.vlim    4.212E-05
    X_U2.vlp    -3.996E-11
    X_U2.vln    -4.005E-11
    X_U1.vb     -1.493E-09
    X_U1.vc      3.415E-12
    X_U1.ve      6.586E-12
    X_U1.vlim   -2.938E-05
    X_U1.vlp    -4.003E-11
    X_U1.vln    -3.997E-11

    TOTAL POWER DISSIPATION   2.04E-02  WATTS



          JOB CONCLUDED

          TOTAL JOB TIME             .22
